<Qucs Dataset 0.0.19>
<indep acfrequency 200>
  +1.00000000000000000000e+002
  +1.03532184329566206316e+002
  +1.07189131920512778606e+002
  +1.10975249641207199147e+002
  +1.14895100018730914826e+002
  +1.18953406737031968987e+002
  +1.23155060329282562748e+002
  +1.27505124071301324307e+002
  +1.32008840083141762989e+002
  +1.36671635646200627434e+002
  +1.41499129743457586983e+002
  +1.46497139830728571042e+002
  +1.51671688847092269725e+002
  +1.57029012472937722578e+002
  +1.62575566644379421177e+002
  +1.68318035333095679107e+002
  +1.74263338600964999614e+002
  +1.80418640939207222118e+002
  +1.86791359902078255573e+002
  +1.93389175045523074914e+002
  +2.00220037181558438988e+002
  +2.07292177959537127663e+002
  +2.14614119785840443910e+002
  +2.22194686093952356032e+002
  +2.30043011977291769199e+002
  +2.38168555197615830821e+002
  +2.46581107582260273148e+002
  +2.55290806823951697879e+002
  +2.64308148697410558725e+002
  +2.73643999707467060034e+002
  +2.83309610183932420568e+002
  +2.93316627839004411271e+002
  +3.03677111803545813018e+002
  +3.14403547159149979962e+002
  +3.25508859983505772107e+002
  +3.37006432927192861371e+002
  +3.48910121340677221724e+002
  +3.61234269970943103090e+002
  +3.73993730247879682338e+002
  +3.87203878181255447544e+002
  +4.00880632889846481248e+002
  +4.15040475785047590307e+002
  +4.29700470432084102868e+002
  +4.44878283112758481366e+002
  +4.60592204114510650470e+002
  +4.76861169771447009680e+002
  +4.93704785283900264403e+002
  +5.11143348344016715146e+002
  +5.29197873595844157535e+002
  +5.47890117959394160607e+002
  +5.67242606849197841257e+002
  +5.87278661318948138614e+002
  +6.08022426164942203286e+002
  +6.29498899022188652452e+002
  +6.51733960488242246356e+002
  +6.74754405311069263007e+002
  +6.98587974678524801675e+002
  +7.23263389648353722805e+002
  +7.48810385759002315353e+002
  +7.75259748862946139525e+002
  +8.02643352225717535475e+002
  +8.30994194935339237418e+002
  +8.60346441668450438556e+002
  +8.90735463861043854195e+002
  +9.22197882333432744417e+002
  +9.54771611420805811576e+002
  +9.88495904662558359632e+002
  +1.02341140210545302125e+003
  +1.05956017927761581632e+003
  +1.09698579789238351623e+003
  +1.13573335834310523751e+003
  +1.17584955405215646351e+003
  +1.21738272773966127716e+003
  +1.26038292967972711267e+003
  +1.30490197801440217518e+003
  +1.35099352119802642846e+003
  +1.39871310264723820183e+003
  +1.44811822767453327288e+003
  +1.49926843278604519583e+003
  +1.55222535742704712902e+003
  +1.60705281826163854930e+003
  +1.66381688607612909436e+003
  +1.72258596539878681142e+003
  +1.78343087693190977916e+003
  +1.84642494289554406350e+003
  +1.91164407538570230827e+003
  +1.97916686785355727807e+003
  +2.04907468981584679568e+003
  +2.12145178491063006732e+003
  +2.19638537241654648824e+003
  +2.27396575235792806780e+003
  +2.35428641432241738585e+003
  +2.43744415012222043515e+003
  +2.52353917043476576509e+003
  +2.61267522556332824024e+003
  +2.70495973046313474697e+003
  +2.80050389418363056393e+003
  +2.89942285388287655223e+003
  +3.00183581357558887248e+003
  +3.10786618778201273017e+003
  +3.21764175025073609504e+003
  +3.33129478793467296782e+003
  +3.44896226040575720617e+003
  +3.57078596490046265899e+003
  +3.69691270719502699649e+003
  +3.82749447851631157391e+003
  +3.96268863870147697526e+003
  +4.10265810582719132071e+003
  +4.24757155253689870733e+003
  +4.39760360930271872348e+003
  +4.55293507486694761610e+003
  +4.71375313411672232178e+003
  +4.88025158365443166986e+003
  +5.05263106533568134182e+003
  +5.23109930805626208894e+003
  +5.41587137807947237889e+003
  +5.60716993820545849303e+003
  +5.80522551609489983093e+003
  +6.01027678207038297842e+003
  +6.22257083673023043957e+003
  +6.44236350872137245460e+003
  +6.66991966303012122808e+003
  +6.90551352016232704045e+003
  +7.14942898659757702262e+003
  +7.40195999691564338718e+003
  +7.66341086800745779328e+003
  +7.93409666579749136872e+003
  +8.21434358491942657565e+003
  +8.50448934180267860938e+003
  +8.80488358164346209378e+003
  +9.11588829975082080637e+003
  +9.43787827777538041119e+003
  +9.77124153534649667563e+003
  +1.01163797976620717236e+004
  +1.04737089795944939397e+004
  +1.08436596868961005384e+004
  +1.12266777351081327652e+004
  +1.16232246867985231802e+004
  +1.20337784077758933563e+004
  +1.24588336429500759550e+004
  +1.28989026125330838113e+004
  +1.33545156292989850044e+004
  +1.38262217376465541747e+004
  +1.43145893752347838017e+004
  +1.48202070579885803454e+004
  +1.53436840893001171935e+004
  +1.58856512942805202329e+004
  +1.64467617799466315773e+004
  +1.70276917222589945595e+004
  +1.76291411809594719671e+004
  +1.82518349431904243829e+004
  +1.88965233969120890833e+004
  +1.95639834351706340385e+004
  +2.02550193923066617572e+004
  +2.09704640132323147554e+004
  +2.17111794569450285053e+004
  +2.24780583354872433119e+004
  +2.32720247896040782507e+004
  +2.40940356023952372198e+004
  +2.49450813523031501973e+004
  +2.58261876068267447408e+004
  +2.67384161583994791727e+004
  +2.76828663039206658141e+004
  +2.86606761694825181621e+004
  +2.96730240818886995839e+004
  +3.07211299886175838765e+004
  +3.18062569279412018659e+004
  +3.29297125509715115186e+004
  +3.40928506974681295105e+004
  +3.52970730273065055371e+004
  +3.65438307095725685940e+004
  +3.78346261713193016476e+004
  +3.91710149080925984890e+004
  +4.05546073584082914749e+004
  +4.19870708444391057128e+004
  +4.34701315812502434710e+004
  +4.50055767570049865753e+004
  +4.65952566866468114313e+004
  +4.82410870416537072742e+004
  +4.99450511585513959290e+004
  +5.17092024289675828186e+004
  +5.35356667741072524223e+004
  +5.54266452066310521332e+004
  +5.73844164830239460571e+004
  +5.94113398496503359638e+004
  +6.15098578858050168492e+004
  +6.36824994471858663019e+004
  +6.59318827133354643593e+004
  +6.82607183427238778677e+004
  +7.06718127392749011051e+004
  +7.31680714342719584238e+004
  +7.57525025877191364998e+004
  +7.84282206133767904248e+004
  +8.11984499318401067285e+004
  +8.40665288561832421692e+004
  +8.70359136148516117828e+004
  +9.01101825166501803324e+004
  +9.32930402628468145849e+004
  +9.65883224115869961679e+004
  +9.99999999999999708962e+004
</indep>
<dep V1.i acfrequency>
  -1.65083836372797494339e-004-j5.17256622156532343076e-005
  -1.64950036795067099581e-004-j5.35604755657932295101e-005
  -1.64806617529747695232e-004-j5.54609520304355659535e-005
  -1.64652886914991503824e-004-j5.74295049996069936218e-005
  -1.64488103553044246775e-004-j5.94686434886870524813e-005
  -1.64311472733415122986e-004-j6.15809766663165771613e-005
  -1.64122142598831666921e-004-j6.37692186705779748930e-005
  -1.63919200035481804493e-004-j6.60361937381140958608e-005
  -1.63701666267766662811e-004-j6.83848416733897176067e-005
  -1.63468492136326402171e-004-j7.08182236881239033678e-005
  -1.63218553036636256255e-004-j7.33395286440673068330e-005
  -1.62950643493814118770e-004-j7.59520797358057068701e-005
  -1.62663471347584129897e-004-j7.86593416541814613062e-005
  -1.62355651519475915326e-004-j8.14649282752922366353e-005
  -1.62025699332382010177e-004-j8.43726109249028137461e-005
  -1.61672023350488148477e-004-j8.73863272735598216844e-005
  -1.61292917705362467062e-004-j9.05101909237997724871e-005
  -1.60886553871592393383e-004-j9.37485017576725719601e-005
  -1.60450971852849251249e-004-j9.71057571204599133223e-005
  -1.59984070736547158691e-004-j1.00586663925056156443e-004
  -1.59483598572437523886e-004-j1.04196151771121810052e-004
  -1.58947141527452918920e-004-j1.07939387183955847111e-004
  -1.58372112265950382159e-004-j1.11821789090223337802e-004
  -1.57755737501165155430e-004-j1.15849045661400152198e-004
  -1.57095044660184106041e-004-j1.20027132671269960652e-004
  -1.56386847601111994869e-004-j1.24362333531267911426e-004
  -1.55627731317325415563e-004-j1.28861261187192532038e-004
  -1.54814035559821606188e-004-j1.33530882083119576808e-004
  -1.53941837304708473069e-004-j1.38378542423619538748e-004
  -1.53006931988887721809e-004-j1.43411996994035099377e-004
  -1.52004813433017168687e-004-j1.48639440831108512369e-004
  -1.50930652366994917310e-004-j1.54069544073240187465e-004
  -1.49779273469582594695e-004-j1.59711490361780358502e-004
  -1.48545130830517353726e-004-j1.65575019212782623048e-004
  -1.47222281740774855715e-004-j1.71670472833496031697e-004
  -1.45804358714731558885e-004-j1.78008847920608110358e-004
  -1.44284539647176503208e-004-j1.84601853049119247509e-004
  -1.42655516008839656442e-004-j1.91461972343201616885e-004
  -1.40909458986851661173e-004-j1.98602536215189553548e-004
  -1.39037983481981323097e-004-j2.06037800068002089748e-004
  -1.37032109883452419760e-004-j2.13783031982199247167e-004
  -1.34882223555765493397e-004-j2.21854610554362961404e-004
  -1.32578031991510708219e-004-j2.30270134221922262050e-004
  -1.30108519611588899266e-004-j2.39048543604890897625e-004
  -1.27461900231677117967e-004-j2.48210258621989069208e-004
  -1.24625567264245051434e-004-j2.57777332402906302154e-004
  -1.21586041792570839423e-004-j2.67773624326748244367e-004
  -1.18328918741947207937e-004-j2.78224994877008342462e-004
  -1.14838811489704291282e-004-j2.89159525425301128232e-004
  -1.11099295407885478360e-004-j3.00607766551057862311e-004
  -1.07092851030651965965e-004-j3.12603019086156702199e-004
  -1.02800807796134526591e-004-j3.25181652758511159553e-004
  -9.82032896468641052813e-005-j3.38383468116734871522e-004
  -9.32791642065453329444e-005-j3.52252108372823845555e-004
  -8.80059978132573483790e-005-j3.66835528929763141168e-004
  -8.23600194184455884237e-005-j3.82186533700067175394e-004
  -7.63160973077146805076e-005-j3.98363388910139167281e-004
  -6.98477338294682578148e-005-j4.15430526972366566656e-004
  -6.29270849180449425757e-005-j4.33459355249407661363e-004
  -5.55250132843528127423e-005-j4.52529187200683411570e-004
  -4.76111868718683776264e-005-j4.72728316568343538001e-004
  -3.91542377424295551637e-005-j4.94155259019326306529e-004
  -3.01220012356092344886e-005-j5.16920190113189870554e-004
  -2.04818614003689346162e-005-j5.41146613722712243634e-004
  -1.02012368150197012240e-005-j5.66973301209636464278e-004
  +7.51748353666309679336e-007-j5.94556548857052896348e-004
  +1.24073489654620042167e-005-j6.24072809359510331274e-004
  +2.47929611779384148141e-005-j6.55721762582768801647e-004
  +3.79314591136908243313e-005-j6.89729901209274994314e-004
  +5.18389689212126456887e-005-j7.26354717930620136929e-004
  +6.65218980239885409591e-005-j7.65889591773308698978e-004
  +8.19729766892538809888e-005-j8.08669480492630091649e-004
  +9.81659875491296769669e-005-j8.55077531123274144423e-004
  +1.15048749203324664355e-004-j9.05552717199664247011e-004
  +1.32533773086642689453e-004-j9.60598591185605251569e-004
  +1.50485816233142280333e-004-j1.02079319153193515124e-003
  +1.68705291279050607770e-004-j1.08680004458498648962e-003
  +1.86906151325330361366e-004-j1.15938001832308719072e-003
  +2.04686422871886932904e-004-j1.23940346304449167114e-003
  +2.21489001586882270668e-004-j1.32786152714252608624e-003
  +2.36549657339526955141e-004-j1.42587462897855623938e-003
  +2.48828464967522854871e-004-j1.53469459280971870681e-003
  +2.56920231007355876537e-004-j1.65569461510304844626e-003
  +2.58939266659332495684e-004-j1.79033759805657531790e-003
  +2.52374782454862275211e-004-j1.94010795012066524640e-003
  +2.33916641902420514420e-004-j2.10638421588743487284e-003
  +1.99259704399521836134e-004-j2.29021979517076432545e-003
  +1.42912575181351769347e-004-j2.49198789673767042568e-003
  +5.80689325469806497636e-005-j2.71083958397241040275e-003
  -6.33477188923835444643e-005-j2.94393220427379602791e-003
  -2.30282894584759028223e-004-j3.18543298597029475236e-003
  -4.51541407816590629424e-004-j3.42542436198620299515e-003
  -7.33918776242786156765e-004-j3.64906385526304454653e-003
  -1.07942474756566480533e-003-j3.83665152263986579742e-003
  -1.48208339331661249384e-003-j3.96544481837406842528e-003
  -1.92559297792594622672e-003-j4.01375277922639151634e-003
  -2.38365444352065187009e-003-j3.96671818055346035725e-003
  -2.82414348971419962644e-003-j3.82162221599428473737e-003
  -3.21624406257808598958e-003-j3.58986372059107421845e-003
  -3.53752490452335227600e-003-j3.29417362515437321321e-003
  -3.77776718319382601163e-003-j2.96239259342440802714e-003
  -3.93844968188037259510e-003-j2.62091424917389008431e-003
  -4.02923026973976781268e-003-j2.29035229770018899237e-003
  -4.06367221414690501374e-003-j1.98412270905990329589e-003
  -4.05583145407974101498e-003-j1.70915952019971926351e-003
  -4.01823618683323433021e-003-j1.46758057363080497877e-003
  -3.96106123080433407402e-003-j1.25842626751233280409e-003
  -3.89206037997746456120e-003-j1.07905420878032232146e-003
  -3.81686962381930011343e-003-j9.26098663019938195956e-004
  -3.73943014243843362826e-003-j7.96058196112155473309e-004
  -3.66240016896430707269e-003-j6.85616719237687531445e-004
  -3.58750263601345653619e-003-j5.91793215029512496665e-004
  -3.51579709611420272719e-003-j5.11990416875738501082e-004
  -3.44788285260379549421e-003-j4.43988793876073906640e-004
  -3.38404624683773897972e-003-j3.85914180391432211619e-004
  -3.32436528972445419564e-003-j3.36195316446422575677e-004
  -3.26878288075340512828e-003-j2.93520037452636120990e-004
  -3.21715742535933976742e-003-j2.56794401042153229951e-004
  -3.16929743815262459847e-003-j2.25106529256662078829e-004
  -3.12498491938955355943e-003-j1.97695601815352554019e-004
  -3.08399092228789188652e-003-j1.73925768911173433051e-004
  -3.04608572312116800476e-003-j1.53264461337543404741e-004
  -3.01104528355949615029e-003-j1.35264486315952851304e-004
  -2.97865518269362994710e-003-j1.19549309041442274829e-004
  -2.94871283634155897588e-003-j1.05800977173994942520e-004
  -2.92102856966750673573e-003-j9.37502185982657521143e-005
  -2.89542593381558830551e-003-j8.31683167000839371642e-005
  -2.87174153529583427169e-003-j7.38604352008493715304e-005
  -2.84982456211676886404e-003-j6.56601236183960420894e-005
  -2.82953613183223838534e-003-j5.84247842699517919368e-005
  -2.81074854587867349262e-003-j5.20319230317257226323e-005
  -2.79334450633754536458e-003-j4.63760398720690299222e-005
  -2.77721633175265301269e-003-j4.13660426278875784675e-005
  -2.76226519521019595743e-003-j3.69230896831446237980e-005
  -2.74840039870476301673e-003-j3.29787850942140947945e-005
  -2.73553869157915682114e-003-j2.94736641059297136270e-005
  -2.72360363664249371940e-003-j2.63559185920050847811e-005
  -2.71252502481154943517e-003-j2.35803212876881295920e-005
  -2.70223833734635834891e-003-j2.11073152090106090065e-005
  -2.69268425365540731847e-003-j1.89022407315936079905e-005
  -2.68380820201384248658e-003-j1.69346777208239905881e-005
  -2.67555995021965132424e-003-j1.51778840941995390318e-005
  -2.66789323310313028839e-003-j1.36083154391994351809e-005
  -2.66076541383117055189e-003-j1.22052129523768331231e-005
  -2.65413717605953933254e-003-j1.09502491241143736926e-005
  -2.64797224414866933656e-003-j9.82722236182407223623e-006
  -2.64223712884789586550e-003-j8.82179319671900927452e-006
  -2.63690089605364292452e-003-j7.92125591535835352533e-006
  -2.63193495644841769787e-003-j7.11434044480555244708e-006
  -2.62731287402283948326e-003-j6.39104013796324216192e-006
  -2.62301019166838846400e-003-j5.74246178449680593728e-006
  -2.61900427220171675910e-003-j5.16069473780649930547e-006
  -2.61527415334130222679e-003-j4.63869652005684631520e-006
  -2.61180041530364266331e-003-j4.17019266182175394990e-006
  -2.60856505981936362751e-003-j3.74958886384771184966e-006
  -2.60555139949021456747e-003-j3.37189384675669876463e-006
  -2.60274395651669638793e-003-j3.03265148912216659844e-006
  -2.60012836992389896607e-003-j2.72788105261680605395e-006
  -2.59769131050098522895e-003-j2.45402446087123345234e-006
  -2.59542040274848449452e-003-j2.20789974128095604200e-006
  -2.59330415319807905741e-003-j1.98665986033983263420e-006
  -2.59133188453268418008e-003-j1.78775628658130906625e-006
  -2.58949367499105393906e-003-j1.60890670367343717435e-006
  -2.58778030259169044766e-003-j1.44806637200385944347e-006
  -2.58618319375598319093e-003-j1.30340270214472695357e-006
  -2.58469437595098498056e-003-j1.17327265955159789466e-006
  -2.58330643400841520121e-003-j1.05620266808368313440e-006
  -2.58201246980893986405e-003-j9.50870721588172331968e-007
  -2.58080606504987753597e-003-j8.56090448837607504152e-007
  -2.57968124684054790283e-003-j7.70796908345120716094e-007
  -2.57863245589295443649e-003-j6.94033916721841417258e-007
  -2.57765451709653439782e-003-j6.24942737835105623471e-007
  -2.57674261228468381296e-003-j5.62751980598329054796e-007
  -2.57589225501782476471e-003-j5.06768571167931040222e-007
  -2.57509926722318104736e-003-j4.56369681018699374469e-007
  -2.57435975754532770515e-003-j4.10995506102105657218e-007
  -2.57367010127412679590e-003-j3.70142804341070639045e-007
  -2.57302692172800984843e-003-j3.33359109287661824499e-007
  -2.57242707298088084736e-003-j3.00237547069592322297e-007
  -2.57186762383019911979e-003-j2.70412191937572620938e-007
  -2.57134584291229427097e-003-j2.43553902940123033008e-007
  -2.57085918487863452839e-003-j2.19366590621094482099e-007
  -2.57040527755377857036e-003-j1.97583868260595405578e-007
  -2.56998191000209650833e-003-j1.77966047157395694028e-007
  -2.56958702143616091879e-003-j1.60297439854955723164e-007
  -2.56921869090500102836e-003-j1.44383939120339103832e-007
  -2.56887512770525433536e-003-j1.30050843948670062372e-007
  -2.56855466246267566399e-003-j1.17140906942223667606e-007
  -2.56825573883551205867e-003-j1.05512580145866073147e-007
  -2.56797690579495686142e-003-j9.50384388550907131889e-008
  -2.56771681044131111840e-003-j8.56037650729088353778e-008
  -2.56747419131759125471e-003-j7.71052742238574167951e-008
  -2.56724787218519205634e-003-j6.94499704496660617513e-008
  -2.56703675622884904331e-003-j6.25541173433056891995e-008
  -2.56683982066058247185e-003-j5.63423123496737321808e-008
  -2.56665611169451610835e-003-j5.07466542782580258234e-008
  -2.56648473986653517798e-003-j4.57059944691865947651e-008
  -2.56632487567465521899e-003-j4.11652631271607280460e-008
  -2.56617574551769311864e-003-j3.70748632118447123857e-008
  -2.56603662791148046107e-003-j3.33901250548666187385e-008
</dep>
<dep _net0.v acfrequency>
  -2.32333114449187381951e-009-j1.07755888935780976081e-007
  -2.49071970355885459352e-009-j1.11568247686187484760e-007
  -2.67019592826204266906e-009-j1.15515948900715165933e-007
  -2.86263686046744599221e-009-j1.19603848083078865537e-007
  -3.06898379601057269029e-009-j1.23836980470152657808e-007
  -3.29024708404496583107e-009-j1.28220568283647314456e-007
  -3.52751129846453477214e-009-j1.32760028337074274488e-007
  -3.78194081222869791301e-009-j1.37460980021429373819e-007
  -4.05478580825542641923e-009-j1.42329253695047888017e-007
  -4.34738876368269708702e-009-j1.47370899505309952902e-007
  -4.66119144776934137702e-009-j1.52592196672319607472e-007
  -4.99774247755371718604e-009-j1.57999663267377391799e-007
  -5.35870547965963350274e-009-j1.63600066522032927259e-007
  -5.74586791138742645024e-009-j1.69400433706775385890e-007
  -6.16115059951497577518e-009-j1.75408063622023113247e-007
  -6.60661806112911531215e-009-j1.81630538748050197667e-007
  -7.08448967739204183244e-009-j1.88075738104869718484e-007
  -7.59715179851208460290e-009-j1.94751850877930043301e-007
  -8.14717086643900281707e-009-j2.01667390870815131448e-007
  -8.73730765106195470317e-009-j2.08831211852029617879e-007
  -9.37053270609299247359e-009-j2.16252523869445532725e-007
